! Created Tue Feb 25 10:59:04 2025
# hz S ma R 50
! 2 Port Network Data from SP1.SP block
! freq  magS11  angS11  magS21  angS21  magS12  angS12  magS22  angS22  
!     
3e+10       0.521182008        -52.6949829         2.35307467         152.410891       0.0015204457         36.6758935        0.711453501        -25.0158315
3.001e+10       0.522211037        -53.0800939         2.36555184         151.992146      0.00153027143         36.2967852        0.711077693        -25.2377253
3.002e+10       0.523249322         -53.465734         2.37810978         151.573397      0.00154016821         35.9175155        0.710701313        -25.4598117
3.003e+10        0.52429689        -53.8519063         2.39074943         151.154628      0.00155013685         35.5380712        0.710324351        -25.6820905
3.004e+10       0.525353769         -54.238614         2.40347176         150.735825      0.00156017813         35.1584389        0.709946795        -25.9045613
3.005e+10       0.526419987        -54.6258608         2.41627772         150.316973      0.00157029287         34.7786052        0.709568633         -26.127224
3.006e+10       0.527495571          -55.01365         2.42916827         149.898055      0.00158048186         34.3985568        0.709189855        -26.3500783
3.007e+10       0.528580547        -55.4019855          2.4421444         149.479057      0.00159074592         34.0182802        0.708810448         -26.573124
3.008e+10       0.529674943        -55.7908709         2.45520707         149.059964      0.00160108588         33.6377618        0.708430402        -26.7963607
3.009e+10       0.530778784        -56.1803103         2.46835726          148.64076      0.00161150256         33.2569882        0.708049706        -27.0197884
3.01e+10       0.531892098        -56.5703078         2.48159595         148.221429       0.0016219968         32.8759459        0.707668349        -27.2434068
3.011e+10       0.533014926        -56.9608685         2.49492419         147.801958      0.00163256948         32.4946194        0.707286319        -27.4672157
3.012e+10       0.534147277        -57.3519958         2.50834291          147.38233      0.00164322141         32.1129968        0.706903605         -27.691215
3.013e+10       0.535289178        -57.7436943         2.52185312         146.962529      0.00165395342         31.7310645        0.706520197        -27.9154044
3.014e+10       0.536440653        -58.1359685         2.53545581         146.542541       0.0016647664         31.3488088        0.706136084        -28.1397837
3.015e+10       0.537601726        -58.5288233           2.549152          146.12235       0.0016756612         30.9662157        0.705751255        -28.3643528
3.016e+10       0.538772422        -58.9222636         2.56294269          145.70194      0.00168663869         30.5832715        0.705365698        -28.5891116
3.017e+10       0.539952765        -59.3162945         2.57682891         145.281296      0.00169769975         30.1999623        0.704979404        -28.8140598
3.018e+10       0.541142778        -59.7109212         2.59081168         144.860403      0.00170884528         29.8162741        0.704592359        -29.0391974
3.019e+10       0.542342485         -60.106149         2.60489203         144.439245      0.00172007616          29.432193        0.704204554        -29.2645242
3.02e+10       0.543551907        -60.5019835           2.619071         144.017807       0.0017313933         29.0477049        0.703815978        -29.4900402
3.021e+10       0.544771085        -60.8984314         2.63334969         143.596073      0.00174279766         28.6627939        0.703426618        -29.7157452
3.022e+10       0.546000024        -61.2954975         2.64772908         143.174027      0.00175429011         28.2774477        0.703036463        -29.9416391
3.023e+10       0.547238743        -61.6931877         2.66221023         142.751654      0.00176587155         27.8916519        0.702645503        -30.1677218
3.024e+10       0.548487264        -62.0915083          2.6767942         142.328938      0.00177754293         27.5053924        0.702253726        -30.3939932
3.025e+10       0.549745608        -62.4904656         2.69148205         141.905863      0.00178930519         27.1186546        0.701861119        -30.6204534
3.026e+10       0.551013794        -62.8900661         2.70627485         141.482413      0.00180115925         26.7314243        0.701467672        -30.8471021
3.027e+10       0.552291841        -63.2903163         2.72117369         141.058573      0.00181310609         26.3436868        0.701073371        -31.0739394
3.028e+10       0.553579767         -63.691223         2.73617963         140.634327      0.00182514666         25.9554277        0.700678207        -31.3009652
3.029e+10        0.55487759        -64.0927933         2.75129377         140.209658      0.00183728192         25.5666323        0.700282165        -31.5281794
3.03e+10       0.556185328        -64.4950344         2.76651721         139.784551      0.00184951285         25.1772859        0.699885234        -31.7555822
3.031e+10       0.557503014        -64.8979543         2.78185111         139.358991      0.00186184049         24.7873719          0.6994874        -31.9831734
3.032e+10       0.558830648        -65.3015597         2.79729651          138.93296      0.00187426578         24.3968772        0.699088652         -32.210953
3.033e+10       0.560168244        -65.7058583         2.81285452         138.506443      0.00188678971         24.0057869        0.698688977        -32.4389211
3.034e+10       0.561515815        -66.1108579         2.82852628         138.079423      0.00189941328         23.6140858        0.698288361        -32.6670776
3.035e+10       0.562873376        -66.5165664         2.84431289         137.651884      0.00191213751          23.221759        0.697886791        -32.8954225
3.036e+10        0.56424094        -66.9229921         2.86021549         137.223809      0.00192496342         22.8287911        0.697484254        -33.1239559
3.037e+10       0.565618517        -67.3301434         2.87623522         136.795183      0.00193789204         22.4351669        0.697080735        -33.3526778
3.038e+10       0.567006119        -67.7380289         2.89237322         136.365988      0.00195092441         22.0408709        0.696676222        -33.5815882
3.039e+10       0.568403756        -68.1466572         2.90863064         135.936207      0.00196406155         21.6458877        0.696270699        -33.8106871
3.04e+10       0.569811436        -68.5560372         2.92500863         135.505826      0.00197730454         21.2502017        0.695864152        -34.0399747
3.041e+10       0.571229187        -68.9661792         2.94150843         135.074826      0.00199065449         20.8537953        0.695456566        -34.2694511
3.042e+10       0.572656996        -69.3770914         2.95813113         134.643191       0.0020041124         20.4566547        0.695047927        -34.4991162
3.043e+10        0.57409487        -69.7887833         2.97487791         134.210904      0.00201767935         20.0587638        0.694638218          -34.72897
3.044e+10       0.575542812        -70.2012647         2.99174993         133.777947      0.00203135641         19.6601067        0.694227425        -34.9590128
3.045e+10       0.577000826        -70.6145455         3.00874839         133.344304      0.00204514469         19.2606672        0.693815531        -35.1892445
3.046e+10       0.578468915        -71.0286357         3.02587446         132.909957      0.00205904526         18.8604292         0.69340252        -35.4196652
3.047e+10       0.579947079        -71.4435457         3.04312935         132.474889      0.00207305924         18.4593762        0.692988376        -35.6502751
3.048e+10       0.581435317        -71.8592859         3.06051426         132.039083      0.00208718774         18.0574919        0.692573081        -35.8810741
3.049e+10       0.582933629        -72.2758671         3.07803037         131.602521      0.00210143187         17.6547595        0.692156619        -36.1120624
3.05e+10       0.584442009        -72.6933001         3.09567891         131.165185      0.00211579276         17.2511626        0.691738971        -36.3432402
3.051e+10       0.585960475        -73.1115971         3.11346116         130.727059      0.00213027161         16.8466823         0.69132012        -36.5746074
3.052e+10       0.587488999        -73.5307683         3.13137826         130.288123      0.00214486948         16.4413036        0.690900047        -36.8061643
3.053e+10       0.589027574        -73.9508255         3.14943144          129.84836      0.00215958753         16.0350093        0.690478733        -37.0379108
3.054e+10       0.590576189        -74.3717802          3.1676219         129.407752      0.00217442691         15.6277824         0.69005616        -37.2698471
3.055e+10       0.592134835        -74.7936445          3.1859509         128.966281      0.00218938877         15.2196053        0.689632307        -37.5019733
3.056e+10       0.593703496        -75.2164306         3.20441965         128.523927      0.00220447427         14.8104607        0.689207155        -37.7342894
3.057e+10       0.595282159        -75.6401509         3.22302938         128.080673       0.0022196846         14.4003309        0.688780683        -37.9667956
3.058e+10       0.596870807        -76.0648179         3.24178135         127.636501      0.00223502091         13.9891982        0.688352871         -38.199492
3.059e+10        0.59846942        -76.4904446         3.26067678         127.191391       0.0022504844         13.5770447        0.687923697        -38.4323785
3.06e+10       0.600077977         -76.917044         3.27971692         126.745324      0.00226607625         13.1638522        0.687493138        -38.6654555
3.061e+10       0.601696477        -77.3446303         3.29890309         126.298283      0.00228179773         12.7496009        0.687061173        -38.8987229
3.062e+10       0.603324872        -77.7732162         3.31823645         125.850247      0.00229764996         12.3342742        0.686627779        -39.1321808
3.063e+10       0.604963136        -78.2028153         3.33771826         125.401197      0.00231363414         11.9178535        0.686192933        -39.3658292
3.064e+10       0.606611237        -78.6334416         3.35734976         124.951114      0.00232975148         11.5003204         0.68575661        -39.5996683
3.065e+10       0.608269144        -79.0651094          3.3771322         124.499978      0.00234600319         11.0816558        0.685318788        -39.8336981
3.066e+10        0.60993682        -79.4978331         3.39706682          124.04777      0.00236239048         10.6618409        0.684879439        -40.0679185
3.067e+10       0.611614229        -79.9316274         3.41715486         123.594469      0.00237891458         10.2408566        0.684438541        -40.3023297
3.068e+10       0.613301329        -80.3665072         3.43739758         123.140056      0.00239557669         9.81868364        0.683996065        -40.5369317
3.069e+10       0.614998077        -80.8024876         3.45779621         122.684511      0.00241237805         9.39530247        0.683551987        -40.7717245
3.07e+10       0.616704426        -81.2395841           3.478352         122.227812      0.00242931987         8.97069353        0.683106278        -41.0067081
3.071e+10       0.618420349        -81.6778131         3.49906626         121.769941      0.00244640347         8.54483516         0.68265891        -41.2418825
3.072e+10       0.620145771        -82.1171897         3.51994015         121.310876         0.00246363         8.11770928        0.682209856        -41.4772477
3.073e+10       0.621880636        -82.5577298          3.5409749         120.850597      0.00248100068         7.68929578        0.681759086        -41.7128035
3.074e+10       0.623624884          -82.99945         3.56217172         120.389081      0.00249851675         7.25957435        0.681306572          -41.94855
3.075e+10       0.625378453        -83.4423668         3.58353184         119.926309      0.00251617943         6.82852453        0.680852282         -42.184487
3.076e+10       0.627141276         -83.886497         3.60505647         119.462259      0.00253398996         6.39612568        0.680396187        -42.4206144
3.077e+10       0.628913282        -84.3318577         3.62674682         118.996909      0.00255194956         5.96235697        0.679938255         -42.656932
3.078e+10       0.630694397        -84.7784662         3.64860407         118.530238      0.00257005945          5.5271974        0.679478453        -42.8934398
3.079e+10       0.632484543        -85.2263402         3.67062942         118.062224      0.00258832087         5.09062579        0.679016748        -43.1301376
3.08e+10       0.634283637        -85.6754975         3.69282405         117.592846      0.00260673503         4.65262078        0.678553108         -43.367025
3.081e+10       0.636091615         -86.125957         3.71518922          117.12208      0.00262530324         4.21315891        0.678087497        -43.6041021
3.082e+10       0.637908363        -86.5777362         3.73772599         116.649905      0.00264402663         3.77222035         0.67761988        -43.8413683
3.083e+10       0.639733786        -87.0308536          3.7604355         116.176299      0.00266290639         3.32978319        0.677150223        -44.0788235
3.084e+10       0.641567782        -87.4853281         3.78331889         115.701237      0.00268194374         2.88582533        0.676678489        -44.3164672
3.085e+10       0.643410245        -87.9411787         3.80637726         115.224698      0.00270113986         2.44032449         0.67620464         -44.554299
3.086e+10       0.645261067        -88.3984248         3.82961171         114.746659      0.00272049595          1.9932582        0.675728639        -44.7923186
3.087e+10       0.647120129        -88.8570859         3.85302333         114.267096      0.00274001317          1.5446038        0.675250448        -45.0305255
3.088e+10       0.648987311        -89.3171818         3.87661318         113.785986       0.0027596927         1.09433843        0.674770026        -45.2689192
3.089e+10       0.650862486        -89.7787326          3.9003823         113.303305       0.0027795357        0.642439086        0.674287333         -45.507499
3.09e+10       0.652745522        -90.2417587          3.9243317         112.819029       0.0027995433        0.188882533        0.673802329        -45.7462645
3.091e+10       0.654636303        -90.7062815          3.9484625         112.333136      0.00281971675       -0.266356589        0.673314971         -45.985215
3.092e+10       0.656534661        -91.1723208         3.97277557         111.845601      0.00284005706        -0.72329992        0.672825217        -46.2243498
3.093e+10       0.658440444        -91.6398978         3.99727185         111.356398      0.00286056534        -1.18197124        0.672333023         -46.463668
3.094e+10       0.660353496        -92.1090337         4.02195226         110.865504      0.00288124267        -1.64239449        0.671838346        -46.7031688
3.095e+10       0.662273651          -92.57975          4.0468177         110.372895      0.00290209012        -2.10459384        0.671341141        -46.9428514
3.096e+10       0.664200738        -93.0520685         4.07186903         109.878544      0.00292310875        -2.56859359        0.670841361        -47.1827147
3.097e+10       0.666134579        -93.5260112         4.09710709         109.382428      0.00294429959        -3.03441825        0.670338959        -47.4227577
3.098e+10       0.668074987        -94.0016003         4.12253265         108.884521      0.00296566364        -3.50209252         0.66983389        -47.6629794
3.099e+10       0.670021768        -94.4788584          4.1481465         108.384798      0.00298720189        -3.97164123        0.669326103        -47.9033785
3.1e+10       0.671974723         -94.957808         4.17394934         107.883233       0.0030089153        -4.44308944        0.668815549        -48.1439538
3.101e+10       0.673933665         -95.438473         4.19994198         107.379801      0.00303080491        -4.91646434        0.668302179         -48.384704
3.102e+10       0.675898352        -95.9208757         4.22612493         106.874476      0.00305287152        -5.39178932        0.667785941        -48.6256277
3.103e+10       0.677868557        -96.4050394          4.2524988         106.367231      0.00307511601        -5.86908991        0.667266783        -48.8667231
3.104e+10       0.679844047        -96.8909877         4.27906414         105.858041      0.00309753923         -6.3483918        0.666744654        -49.1079889
3.105e+10       0.681824575        -97.3787443         4.30582144          105.34688      0.00312014198        -6.82972085          0.6662195        -49.3494231
3.106e+10       0.683809888        -97.8683332         4.33277115          104.83372      0.00314292504        -7.31310307        0.665691267         -49.591024
3.107e+10       0.685799723        -98.3597786         4.35991367         104.318535      0.00316588914        -7.79856462        0.665159899        -49.8327897
3.108e+10       0.687793808        -98.8531048         4.38724934         103.801299        0.003189035        -8.28613179         0.66462534         -50.074718
3.109e+10       0.689791857        -99.3483365         4.41477843         103.281985      0.00321236326        -8.77583102        0.664087534        -50.3168069
3.11e+10       0.691793579        -99.8454983         4.44250116         102.760565      0.00323587455        -9.26768889        0.663546424         -50.559054
3.111e+10       0.693798693        -100.344616         4.47041781         102.237014      0.00325956953        -9.76173414        0.663001948        -50.8014571
3.112e+10        0.69580686        -100.845714         4.49852834         101.711302      0.00328344862        -10.2579915        0.662454051        -51.0440134
3.113e+10       0.697817752        -101.348817         4.52683276         101.183404      0.00330751229         -10.756488        0.661902671        -51.2867202
3.114e+10       0.699831031        -101.853952         4.55533102         100.653291      0.00333176094        -11.2572506        0.661347747        -51.5295748
3.115e+10       0.701846346        -102.361142         4.58402299         100.120936      0.00335619495        -11.7603064        0.660789219        -51.7725742
3.116e+10       0.703863335        -102.870414         4.61290843         99.5863115       0.0033808146        -12.2656827        0.660227025        -52.0157152
3.117e+10       0.705881623        -103.381794         4.64198707         99.0493899      0.00340562013        -12.7734066          0.6596611        -52.2589945
3.118e+10       0.707900823        -103.895308          4.6712585         98.5101432      0.00343061173        -13.2835057        0.659091383        -52.5024086
3.119e+10       0.709920532        -104.410981         4.70072226         97.9685437       0.0034557895        -13.7960072        0.658517807        -52.7459539
3.12e+10       0.711940337         -104.92884         4.73037777         97.4245636      0.00348115347        -14.3109387         0.65794031        -52.9896266
3.121e+10       0.713959836        -105.448911          4.7602245         96.8781754      0.00350670373        -14.8283298        0.657358824        -53.2334228
3.122e+10       0.715978561        -105.971221         4.79026154         96.3293507      0.00353244005        -15.3482059        0.656773284        -53.4773382
