#  HZ   S   RI   R     50.00 
! Rohde & Schwarz Vector Network Analyzer 
! Rohde-Schwarz,ZNA67-4Port,1332450064101727,2.92
! Created: UTC 2/6/2025, 8:33:41 PM
! 2-6-2025
! freq[Hz]                re:S11                  im:S11                  re:S21                  im:S21                  re:S12                  im:S12                  re:S22                  im:S22
 3.000000000000000E+10  -8.303607452141428E-1    3.257940424921869E-1    2.537340516923093      -1.786550792807327      -1.008565092525669E-2    4.495862114153794E-4    5.943915784440482E-1   -4.262290142039292E-1
 3.006666666666667E+10  -7.910990429984929E-1    3.884540047994955E-1    2.221908820701247      -2.175439461614361      -9.791483820836770E-3    6.627387700759802E-4    5.796478847153864E-1   -4.410353972383504E-1
 3.013333333333333E+10  -7.540674523616839E-1    4.431268141379616E-1    2.301246822508780      -2.384921760555227      -1.000337831487449E-2    7.692054928286502E-4    5.624057630960526E-1   -4.491838950744903E-1
 3.020000000000000E+10  -7.085063933737741E-1    4.929794912974302E-1    2.047368286416298      -2.329110366750849      -9.992393492611247E-3    2.269498097432722E-3    5.510353970132298E-1   -4.640948095788650E-1
 3.026666666666667E+10  -6.608036615861351E-1    5.348174821636658E-1    1.743253791312145      -2.694475946096001      -9.932984193165181E-3    2.379677633537983E-3    5.375051754657483E-1   -4.730365002207221E-1
 3.033333333333333E+10  -6.137610845680009E-1    5.733996908658940E-1    1.699716173846230      -2.741396362436276      -9.856211609797388E-3    2.138352987524977E-3    5.220197622815800E-1   -4.827759799618705E-1
 3.040000000000000E+10  -5.594970469057925E-1    5.990907817421379E-1    1.336020144525549      -2.870326737233432      -9.755336612676243E-3    1.908818597590330E-3    5.071433813524404E-1   -4.968532595538201E-1
 3.046666666666667E+10  -5.147120681426745E-1    6.244264090989202E-1    1.195728747266978      -3.093140430358045      -9.812515472149057E-3    2.137263158280377E-3    4.916679028357098E-1   -4.999667138745931E-1
 3.053333333333333E+10  -4.626482834337177E-1    6.384261943777862E-1    1.047956417567017      -3.083365720845913      -5.068959663892652E-3    1.858372241559787E-3    4.758679224563709E-1   -5.126517878206537E-1
 3.060000000000000E+10  -4.184497014219642E-1    6.514510220254992E-1    7.767426327969894E-1   -3.133807625070196      -5.308104752317492E-3    2.352860835438943E-3    4.638122501025503E-1   -5.228218762358373E-1
 3.066666666666667E+10  -3.718076193987877E-1    6.600463591599598E-1    6.588610260288642E-1   -3.231080354998349      -5.001923095896645E-3    2.997103032181419E-3    4.471782745947739E-1   -5.283087828211036E-1
 3.073333333333333E+10  -3.284929576030068E-1    6.616948952882781E-1    4.740555661781675E-1   -3.313478450519426      -5.242446965659911E-3    2.933399755147014E-3    4.309976632456659E-1   -5.416475273304288E-1
 3.080000000000000E+10  -2.884245189226343E-1    6.624251591602165E-1    2.175741499820788E-1   -3.429552918663652      -5.157772813076420E-3    2.626304215775024E-3    4.170744946623030E-1   -5.443988525689912E-1
 3.086666666666667E+10  -2.493614125735731E-1    6.587575988583333E-1    9.398427363757875E-2   -3.421533235376423      -4.655630407941722E-3    2.869766280828875E-3    3.963506005448788E-1   -5.568297418708027E-1
 3.093333333333333E+10  -2.149570959663206E-1    6.548681196456486E-1   -1.445668598575210E-1   -3.395204446029382      -5.379837065625248E-3    3.487274069036525E-3    3.829697266260588E-1   -5.607781760023176E-1
 3.100000000000000E+10  -1.801705987862582E-1    6.458671301117890E-1   -3.461785243066708E-1   -3.386058072150627      -4.740191189898970E-3    2.896582337078095E-3    3.662434359420809E-1   -5.706973983488999E-1
 3.106666666666667E+10  -1.503847451924073E-1    6.384538071365777E-1   -4.299719046475139E-1   -3.306614344653066      -4.484265900522271E-3    2.565599145482971E-3    3.465693137411714E-1   -5.706074498923946E-1
 3.113333333333333E+10  -1.192622478385714E-1    6.271383798311524E-1   -6.555764936627871E-1   -3.359782231167119      -4.371833622110286E-3    1.749203327727941E-3    3.309462996049889E-1   -5.826025469476617E-1
 3.120000000000000E+10  -9.368235975073048E-2    6.157234060847598E-1   -7.746970535109764E-1   -3.308712775236641      -4.295259827199819E-3    3.119850900026715E-3    3.103122903004574E-1   -5.832772412796184E-1
 3.126666666666667E+10  -6.774324051458108E-2    6.043629138370680E-1   -1.002112773961897      -3.153766345431584      -4.253574577208027E-3    3.306967526310297E-3    2.987432339231244E-1   -5.866885508842549E-1
 3.133333333333333E+10  -4.549787171086938E-2    5.882347075456154E-1   -1.224167047587101      -3.072010626054487      -4.878612173664179E-3    3.089100248216505E-3    2.746175824420526E-1   -5.941258792611613E-1
 3.140000000000000E+10  -2.310121777723331E-2    5.751951316339894E-1   -1.318625002438100      -3.006600950229699      -4.251783107313944E-3    2.978411779299266E-3    2.598828303071155E-1   -5.943849791470767E-1
 3.146666666666667E+10  -3.234673013698399E-3    5.593959763172157E-1   -1.516314279008695      -2.778333852730270      -4.433813263491472E-3    3.080956261005819E-3    2.431283840944423E-1   -6.033286623313058E-1
 3.153333333333333E+10   1.535904970970975E-2    5.433844758255479E-1   -1.712864120065805      -2.602753215372676      -4.240287429304435E-3    3.551742928906658E-3    2.241940324651256E-1   -5.997979385981576E-1
 3.160000000000000E+10   3.420655027857859E-2    5.304756408560963E-1   -1.795276160825620      -2.502618063220896      -5.044490401732431E-3    3.838220217268005E-3    2.100212300630960E-1   -6.047742035227376E-1
 3.166666666666667E+10   4.576392482407405E-2    5.101020241168163E-1   -1.999030271794494      -2.400247033767631      -5.797954568746115E-3    3.329945462786606E-3    1.862843290152740E-1   -6.055403739672620E-1
 3.173333333333333E+10   6.238583180170845E-2    4.976610370941591E-1   -2.076471242303527      -2.259880204613131      -4.907077763512993E-3    3.211037746353094E-3    1.742349658616375E-1   -6.077600826019506E-1
 3.180000000000000E+10   7.299405223069055E-2    4.758636913947533E-1   -2.204261139586811      -2.010775724117107      -4.904431655724417E-3    3.738437107080164E-3    1.544551038692338E-1   -6.093077215504197E-1
 3.186666666666667E+10   8.418280380978001E-2    4.621394037780932E-1   -2.325386503506212      -1.858273026609725      -4.404820134170454E-3    3.937230011047197E-3    1.350373935859569E-1   -6.065239486711080E-1
 3.193333333333333E+10   9.283545654832065E-2    4.440254676783500E-1   -2.394172327692830      -1.690445194387073      -4.365955018876020E-3    4.197965290362332E-3    1.195945339590901E-1   -6.078838625636821E-1
 3.200000000000000E+10   1.004628975773962E-1    4.287403311925148E-1   -2.511018738249283      -1.571425776148854      -4.758220741635093E-3    4.654113025458194E-3    9.738018796110945E-2   -6.063652319462084E-1
 3.206666666666667E+10   1.079912456359218E-1    4.122822339489532E-1   -2.512091095634485      -1.504617646573446      -5.065137109971816E-3    3.993660597456882E-3    8.444585852364092E-2   -6.040368870732893E-1
 3.213333333333333E+10   1.136700339091391E-1    3.959145586467562E-1   -2.599356515214941      -1.256896148315622      -4.317509399474434E-3    5.202613810144918E-3    6.426349353104430E-2   -6.050470372460875E-1
 3.220000000000000E+10   1.184712072555393E-1    3.795972631630317E-1   -2.749574317437397      -1.201002025805192      -5.127508231216713E-3    4.342404630296156E-3    5.102363812291933E-2   -6.004306914342750E-1
 3.226666666666667E+10   1.218877216210261E-1    3.643135811045343E-1   -2.647677164230776      -1.054245451337632      -4.213922496741665E-3    5.507791258411663E-3    3.168875626092538E-2   -5.981338524673385E-1
 3.233333333333333E+10   1.247344407996383E-1    3.475526871173550E-1   -2.729977252040047      -8.626983319645758E-1   -5.405378074128765E-3    5.892805387129824E-3    1.717401208866815E-2   -5.951987273104969E-1
 3.240000000000000E+10   1.251329337580433E-1    3.348848033307856E-1   -2.781020288840384      -8.657047336353070E-1   -4.686387535570774E-3    4.427212777606128E-3   -2.153886310495060E-4   -5.913612540363689E-1
 3.246666666666667E+10   1.259638449657962E-1    3.182494344177978E-1   -2.682093114786718      -7.079456575803117E-1   -4.276902090623210E-3    5.630751188446724E-3   -1.850546258531275E-2   -5.887847584611908E-1
 3.253333333333333E+10   1.261527567073261E-1    3.046497553978514E-1   -2.773530144931178      -6.016983256809175E-1   -3.431524968556070E-3    5.796823476575502E-3   -3.170133840934598E-2   -5.845742650773780E-1
 3.260000000000000E+10   1.232598105316158E-1    2.903737012318597E-1   -2.705613646345051      -5.736595635077644E-1   -3.179074642342284E-3    5.630428837316980E-3   -5.256638797639272E-2   -5.829358171354949E-1
 3.266666666666667E+10   1.258667579716645E-1    2.776139482566632E-1   -2.685513815698419      -3.312884710149187E-1   -3.977024602691918E-3    6.029471098615439E-3   -6.322354591929111E-2   -5.725169263833186E-1
 3.273333333333333E+10   1.207163127360068E-1    2.641488922459045E-1   -2.809597616074042      -3.152083691383051E-1   -3.874322770935272E-3    5.674511805802706E-3   -8.556291308087091E-2   -5.722050561905101E-1
 3.280000000000000E+10   1.202752283798113E-1    2.527748538281541E-1   -2.658144655996341      -2.447488900769736E-1   -3.494276735952353E-3    6.887474320670829E-3   -9.674316077815669E-2   -5.592925432506893E-1
 3.286666666666667E+10   1.161530438880072E-1    2.373857308610941E-1   -2.648696737701906      -5.706896062866923E-3   -4.230672158881876E-3    6.865486548508560E-3   -1.145810548632672E-1   -5.585839917206847E-1
 3.293333333333333E+10   1.126766736851872E-1    2.287659608153835E-1   -2.699864031327426      -6.789522851032383E-3   -3.221656912814278E-3    6.295950648207128E-3   -1.299441426832453E-1   -5.473959320537044E-1
 3.300000000000000E+10   1.082212586286726E-1    2.125268727964621E-1   -2.606380446316451       9.426316078398693E-2   -3.251172050577150E-3    6.621563408173660E-3   -1.407681643388794E-1   -5.428209197753546E-1
 3.306666666666667E+10   1.015791062092518E-1    2.044521821318628E-1   -2.705582344832467       2.621822048636681E-1   -3.040815479136349E-3    6.569310988903676E-3   -1.587945980570947E-1   -5.351814338810418E-1
 3.313333333333333E+10   9.689549489604551E-2    1.929728016382918E-1   -2.717869974978370       2.582889522078850E-1   -3.360459169075132E-3    5.801508824449655E-3   -1.698866886780738E-1   -5.226381694067312E-1
 3.320000000000000E+10   8.910244899507484E-2    1.818423455571275E-1   -2.630365852985083       4.404815116131129E-1   -2.137341536889480E-3    6.757295661416154E-3   -1.844778787348715E-1   -5.212796960757329E-1
 3.326666666666667E+10   8.319956252913692E-2    1.731032540993307E-1   -2.693172258480799       5.862139535094807E-1   -2.815023432056787E-3    6.297257315170577E-3   -2.050034742964911E-1   -5.027330505082988E-1
 3.333333333333333E+10   7.605615834607458E-2    1.641913036141752E-1   -2.683115947170775       6.173938448293399E-1   -2.128624376910361E-3    6.697237820853340E-3   -2.120925988729133E-1   -5.073941074963046E-1
 3.340000000000000E+10   6.718491888820730E-2    1.557093007223157E-1   -2.653597797027582       7.645164720432200E-1   -1.885602375718248E-3    4.641778720400612E-3   -2.274832659349380E-1   -4.869152555948336E-1
 3.346666666666667E+10   6.009453631657778E-2    1.494361641889393E-1   -2.741653440920413       8.207406871703455E-1   -1.595249744245798E-3    5.072219027536053E-3   -2.375896788375655E-1   -4.828891914180878E-1
 3.353333333333333E+10   5.030227887069299E-2    1.427114650045664E-1   -2.661970190741744       8.574196324177188E-1   -5.260071945683156E-4    5.674963193100593E-3   -2.524657246759150E-1   -4.693233763662499E-1
 3.360000000000000E+10   4.340911959703821E-2    1.360969529078415E-1   -2.673628247576751       1.088789175041861      -1.410161529319187E-3    4.864036676728498E-3   -2.648132878951738E-1   -4.557039201370284E-1
 3.366666666666667E+10   3.266466036699316E-2    1.320193093304411E-1   -2.733073808225920       1.166051839081185      -1.261292499479849E-3    4.040360958825373E-3   -2.779044563795957E-1   -4.527408816962961E-1
 3.373333333333333E+10   2.753515272788352E-2    1.248475937772598E-1   -2.657233499021000       1.281862173027516      -8.609566557051080E-4    4.646204416881258E-3   -2.858864047222806E-1   -4.356678627618705E-1
 3.380000000000000E+10   1.524737605977156E-2    1.196416904905841E-1   -2.675496446885403       1.362967988968768      -8.830273754362917E-4    3.303431032868693E-3   -2.946219911213154E-1   -4.285252745302984E-1
 3.386666666666667E+10   9.322405968362438E-3    1.162012501898481E-1   -2.585997294821305       1.406996752156409      -6.705457723792867E-4    3.849784046482673E-3   -3.090099415717755E-1   -4.104417401318380E-1
 3.393333333333333E+10  -2.890910134532774E-3    1.093679810071125E-1   -2.518799412277478       1.640477388730005      -5.132654566546799E-4    3.619325050367115E-3   -3.136504276730378E-1   -4.024164127501013E-1
 3.400000000000000E+10  -1.140075577398863E-2    1.087732266004721E-1   -2.599472230267196       1.729645950997883      -1.443937285329892E-4    3.100769878271922E-3   -3.312857988672046E-1   -3.902402850226340E-1
 3.406666666666667E+10  -2.142830403209754E-2    1.032748505932198E-1   -2.431098075624806       1.869263940189433      -8.834090326257833E-4    3.690690589246250E-3   -3.336141209699105E-1   -3.775351684913942E-1
 3.413333333333333E+10  -3.207569778929187E-2    1.011922115840217E-1   -2.359515707449755       2.024025318269711      -4.252976477844891E-4    2.786815863861890E-3   -3.452899982140194E-1   -3.687738892905941E-1
 3.420000000000000E+10  -4.061955430524822E-2    9.917665218290983E-2   -2.304187122604475       2.011873761853920       1.252077867538813E-4    3.978881835866321E-3   -3.522108416275654E-1   -3.482729432501976E-1
 3.426666666666667E+10  -5.170164974046489E-2    9.553399111730856E-2   -2.086061631251237       2.223932258165871       7.623759967637340E-4    2.951450730376955E-3   -3.588638406748681E-1   -3.445290841188314E-1
 3.433333333333333E+10  -6.162651255454087E-2    9.821281700755681E-2   -2.111865458438229       2.420638869633187      -2.869443230904179E-4    3.790910293462799E-3   -3.690815651376744E-1   -3.263473456905455E-1
 3.440000000000000E+10  -7.040209072624931E-2    9.417009732988021E-2   -1.956648744297703       2.406044859081815      -8.480175254310520E-5    3.123075582444556E-3   -3.703972186681956E-1   -3.124406865344428E-1
 3.446666666666666E+10  -8.462752673627731E-2    9.596256396055411E-2   -1.867458154499949       2.637594713250466       3.585561405157271E-4    2.067353116245021E-3   -3.875142246273066E-1   -3.052119674629628E-1
 3.453333333333334E+10  -9.147009722191023E-2    9.676654956878171E-2   -1.815640834137992       2.668292732079174       7.832107015530220E-4    1.809323145003894E-3   -3.823462654864953E-1   -2.847655938054395E-1
 3.460000000000000E+10  -1.060241346698708E-1    9.657695278480946E-2   -1.529203795334194       2.744845337561160      -1.100655841108020E-3    7.893416624361108E-4   -3.932286135672985E-1   -2.794268459807168E-1
 3.466666666666666E+10  -1.135055295885212E-1    1.016085058004090E-1   -1.483531680658423       2.991461199160506       3.819551151845182E-4    7.601884027466069E-4   -3.976919486354032E-1   -2.565054814891191E-1
 3.473333333333334E+10  -1.248190517689804E-1    1.004613087816059E-1   -1.372896298026078       2.985622297026171       5.200016379007135E-4    2.338228044971281E-3   -3.998499383362569E-1   -2.487507079495888E-1
 3.480000000000000E+10  -1.333535074631695E-1    1.074790001427573E-1   -1.163293906613835       3.139805545754276      -7.534219104233223E-4    1.410582972520301E-3   -4.121445318898733E-1   -2.343461261058606E-1
 3.486666666666666E+10  -1.436445692185115E-1    1.104082922028160E-1   -1.139626924752796       3.193020628892048       6.914026627448356E-4    1.382344237055923E-3   -4.087598322049874E-1   -2.177820655758413E-1
 3.493333333333334E+10  -1.522914160900380E-1    1.140503965343404E-1   -9.089304471080160E-1    3.168871773927575      -4.318341210420605E-5   -1.775959094722706E-4   -4.166554006046270E-1   -2.124049256693481E-1
 3.500000000000000E+10  -1.618495538484015E-1    1.189725238088424E-1   -7.257193171718116E-1    3.336001274814687       3.408566503003206E-4   -1.450344221750738E-4   -4.151098249683587E-1   -1.869835755804262E-1
 3.506666666666666E+10  -1.717118374246999E-1    1.237633470375609E-1   -6.734734137369529E-1    3.343694166777324       4.408673090525399E-4    1.786551652375027E-4   -4.180950239493338E-1   -1.847627616986018E-1
 3.513333333333334E+10  -1.805279274076892E-1    1.285487056820049E-1   -4.521424336070543E-1    3.387163154998108      -2.281300971490556E-4   -2.088001527680916E-4   -4.221460319470890E-1   -1.593990896178079E-1
 3.520000000000000E+10  -1.903903341550601E-1    1.365383205182187E-1   -3.373030566574868E-1    3.413041668037076      -3.451012695808696E-4   -1.805500308122140E-3   -4.222273864399556E-1   -1.526687886086077E-1
 3.526666666666666E+10  -1.982015183163240E-1    1.418302747642169E-1   -1.610686021533620E-1    3.469176680920497      -9.914475843244631E-4   -1.932277378176957E-3   -4.263809149882120E-1   -1.378044911312363E-1
 3.533333333333334E+10  -2.074955740839524E-1    1.473219074220113E-1   -5.298938217442282E-2    3.508348948726813      -1.300606193996131E-3   -1.202679802025049E-3   -4.217658795922853E-1   -1.217851156247817E-1
 3.540000000000000E+10  -2.155126641878038E-1    1.572668439164757E-1    9.347518073515022E-2    3.442740705771325      -1.359410005213937E-3   -1.675452589261550E-3   -4.283544661656284E-1   -1.125380865020856E-1
 3.546666666666666E+10  -2.201019897667492E-1    1.620222933594595E-1    3.462058432979807E-1    3.525296642821665      -1.574186703075007E-3   -1.602876002808379E-3   -4.236794688411044E-1   -9.320392832552749E-2
 3.553333333333334E+10  -2.329167144120723E-1    1.734277428252821E-1    4.113395396595590E-1    3.561525270588577      -9.934463812480828E-4   -8.863374601272670E-4   -4.237958508392585E-1   -8.838759680002535E-2
 3.560000000000000E+10  -2.358652912337673E-1    1.800379044822046E-1    6.400581595958643E-1    3.496314081654512      -2.843921942109742E-3   -1.330462469548221E-3   -4.253624457302002E-1   -6.575654723767159E-2
 3.566666666666666E+10  -2.466542033405723E-1    1.887658197090176E-1    7.728557519159048E-1    3.611684731354229      -2.073515137997494E-3   -1.999016896895661E-3   -4.173334471966539E-1   -5.936733657348046E-2
 3.573333333333334E+10  -2.519808266791680E-1    2.003119190084678E-1    8.403468590556620E-1    3.509535191986465      -1.747115656389679E-3   -1.103812812198766E-3   -4.250975750397800E-1   -4.268283343653141E-2
 3.580000000000000E+10  -2.583440071997824E-1    2.070179923847585E-1    1.112465374256645       3.500113456946523      -1.575911077733271E-3   -9.911724218114328E-4   -4.127004133451254E-1   -3.137791141538488E-2
 3.586666666666666E+10  -2.665045284808301E-1    2.223570175954868E-1    1.284056233357653       3.591140483295309      -2.882815633369715E-3   -1.195675192373078E-3   -4.173628045722292E-1   -2.266415117851596E-2
 3.593333333333334E+10  -2.693070665983872E-1    2.331169307831980E-1    1.394840820592278       3.553899812468685      -2.419213665550802E-3   -1.242041070616412E-3   -4.075565695119234E-1   -2.578741580242275E-3
 3.600000000000000E+10  -2.785001151572206E-1    2.443778734349646E-1    1.603265178268969       3.527509845313018      -3.392823656996260E-3   -2.413483396710971E-3   -4.072428305388244E-1    1.336011602933001E-3
