! Created Fri Jun 27 12:03:18 2025
# hz S ma R 50
! 2 Port Network Data from SP1.SP block
! freq  magS11  angS11  magS21  angS21  magS12  angS12  magS22  angS22  
!     
3.6e+10       0.699506256         114.952216        0.644868674        -96.5528092        0.644868674        -96.5528092        0.673059729        -126.795559
3.61e+10       0.698622132          114.57357        0.645742685        -97.5350839        0.645742685        -97.5350839        0.672413186        -128.394369
3.62e+10       0.697751958         114.193884        0.646595607        -98.5138716        0.646595607        -98.5138716        0.671770575        -129.984154
3.63e+10        0.69689451          113.81312        0.647428874        -99.4892876        0.647428874        -99.4892876        0.671130389        -131.565125
3.64e+10       0.696048573         113.431249        0.648243893         -100.46145        0.648243893         -100.46145        0.670491132        -133.137502
3.65e+10       0.695212944         113.048242        0.649042045        -101.430481        0.649042045        -101.430481        0.669851321        -134.701519
3.66e+10        0.69438643         112.664078        0.649824682        -102.396505        0.649824682        -102.396505        0.669209485        -136.257418
3.67e+10       0.693567852          112.27874        0.650593128        -103.359649        0.650593128        -103.359649        0.668564165        -137.805453
3.68e+10       0.692756042         111.892214         0.65134868        -104.320043         0.65134868        -104.320043        0.667913916        -139.345887
3.69e+10       0.691949849         111.504494        0.652092604        -105.277822        0.652092604        -105.277822        0.667257303        -140.878996
3.7e+10       0.691148135         111.115575        0.652826137        -106.233121        0.652826137        -106.233121        0.666592905        -142.405062
3.71e+10       0.690349778         110.725458        0.653550487         -107.18608        0.653550487         -107.18608        0.665919312        -143.924381
3.72e+10       0.689553672         110.334149        0.654266831        -108.136842        0.654266831        -108.136842        0.665235125        -145.437256
3.73e+10       0.688758726         109.941655        0.654976316        -109.085551        0.654976316        -109.085551        0.664538954        -146.944003
3.74e+10       0.687963867         109.547991        0.655680061        -110.032357        0.655680061        -110.032357        0.663829422        -148.444946
3.75e+10       0.687168039         109.153174        0.656379152        -110.977411        0.656379152        -110.977411        0.663105158        -149.940418
3.76e+10       0.686370203         108.757226        0.657074645        -111.920867        0.657074645        -111.920867        0.662364799        -151.430764
3.77e+10       0.685569335         108.360172        0.657767565        -112.862884        0.657767565        -112.862884        0.661606992         -152.91634
3.78e+10       0.684764432         107.962043        0.658458908        -113.803623        0.658458908        -113.803623        0.660830387        -154.397509
3.79e+10       0.683954506         107.562871        0.659149637        -114.743248        0.659149637        -114.743248         0.66003364        -155.874647
3.8e+10       0.683138588         107.162696        0.659840684        -115.681928        0.659840684        -115.681928        0.659215409        -157.348141
3.81e+10       0.682315726          106.76156        0.660532949        -116.619833        0.660532949        -116.619833        0.658374357        -158.818388
3.82e+10       0.681484985         106.359508        0.661227302         -117.55714        0.661227302         -117.55714        0.657509146        -160.285797
3.83e+10       0.680645451         105.956592         0.66192458        -118.494028         0.66192458        -118.494028        0.656618439        -161.750788
3.84e+10       0.679796226         105.552866        0.662625585         -119.43068        0.662625585         -119.43068        0.655700898        -163.213796
3.85e+10       0.678936431         105.148389         0.66333109        -120.367282         0.66333109        -120.367282        0.654755179        -164.675264
3.86e+10       0.678065207         104.743227        0.664041831        -121.304027        0.664041831        -121.304027        0.653779939        -166.135652
3.87e+10       0.677181712         104.337446        0.664758511        -122.241111        0.664758511        -122.241111        0.652773824        -167.595432
3.88e+10       0.676285125         103.931122        0.665481798        -123.178734        0.665481798        -123.178734        0.651735477        -169.055092
3.89e+10       0.675374646         103.524332        0.666212324        -124.117102        0.666212324        -124.117102        0.650663531        -170.515134
3.9e+10       0.674449496          103.11716        0.666950682        -125.056426        0.666950682        -125.056426        0.649556609        -171.976075
3.91e+10       0.673508916         102.709695         0.66769743        -125.996922         0.66769743        -125.996922        0.648413325        -173.438451
3.92e+10       0.672552172         102.302032        0.668453084        -126.938811        0.668453084        -126.938811        0.647232278        -174.902814
3.93e+10       0.671578554         101.894271        0.669218119        -127.882321        0.669218119        -127.882321        0.646012055        -176.369735
3.94e+10       0.670587375         101.486519        0.669992967        -128.827686        0.669992967        -128.827686        0.644751231        -177.839805
3.95e+10       0.669577978         101.078889        0.670778015        -129.775147        0.670778015        -129.775147        0.643448361        -179.313637
3.96e+10       0.668549735         100.671501        0.671573602         -130.72495        0.671573602         -130.72495        0.642101987         179.208137
3.97e+10       0.667502046         100.264483        0.672380019         -131.67735        0.672380019         -131.67735        0.640710634         177.724858
3.98e+10       0.666434349          99.857968        0.673197502        -132.632609        0.673197502        -132.632609        0.639272807         176.235844
3.99e+10       0.665346117         99.4520997        0.674026231        -133.590997        0.674026231        -133.590997        0.637786996         174.740386
4e+10       0.664236861         99.0470286        0.674866328        -134.552793        0.674866328        -134.552793         0.63625167         173.237747
4.01e+10        0.66310614         98.6429146        0.675717851        -135.518283        0.675717851        -135.518283        0.634665283         171.727159
4.02e+10       0.661953557         98.2399265        0.676580788        -136.487765        0.676580788        -136.487765        0.633026271         170.207824
4.03e+10       0.660778771         97.8382434        0.677455057        -137.461546        0.677455057        -137.461546        0.631333051         168.678907
4.04e+10       0.659581498         97.4380547        0.678340493        -138.439941        0.678340493        -138.439941        0.629584027         167.139539
4.05e+10       0.658361518         97.0395606         0.67923685         -139.42328         0.67923685         -139.42328        0.627777591         165.588811
4.06e+10       0.657118685         96.6429732        0.680143788        -140.411901        0.680143788        -140.411901        0.625912121         164.025773
4.07e+10       0.655852928          96.248517        0.681060868        -141.406156        0.681060868        -141.406156        0.623985991         162.449429
4.08e+10       0.654564266          95.856429        0.681987543        -142.406411        0.681987543        -142.406411        0.621997567         160.858738
4.09e+10       0.653252812         95.4669604        0.682923148        -143.413042        0.682923148        -143.413042         0.61994522         159.252607
4.1e+10       0.651918785         95.0803762        0.683866888        -144.426442        0.683866888        -144.426442        0.617827326         157.629889
4.11e+10       0.650562524         94.6969563        0.684817829        -145.447019        0.684817829        -145.447019        0.615642274         155.989378
4.12e+10         0.6491845         94.3169959        0.685774885        -146.475195        0.685774885        -146.475195        0.613388477         154.329807
4.13e+10       0.647785333         93.9408059        0.686736801        -147.511412        0.686736801        -147.511412        0.611064378         152.649843
4.14e+10       0.646365819         93.5687135        0.687702141        -148.556126        0.687702141        -148.556126        0.608668462         150.948079
4.15e+10       0.644926947         93.2010634         0.68866927        -149.609814         0.68866927        -149.609814        0.606199272         149.223034
4.16e+10       0.643469924         92.8382188        0.689636335         -150.67297        0.689636335         -150.67297        0.603655422         147.473145
4.17e+10       0.641996191         92.4805618        0.690601238        -151.746111        0.690601238        -151.746111        0.601035618         145.696757
4.18e+10       0.640507448         92.1284944        0.691561611         -152.82977        0.691561611         -152.82977        0.598338675         143.892125
4.19e+10       0.639005671         91.7824379        0.692514785        -153.924505        0.692514785        -153.924505        0.595563539           142.0574
4.2e+10       0.637493143         91.4428328        0.693457758        -155.030896        0.693457758        -155.030896        0.592709311         140.190625
